
T16D0 000:238 SEGGER J-Link V4.68a Log File (0000ms, 0237ms total)
T16D0 000:238 DLL Compiled: Apr 12 2013 13:26:50 (0000ms, 0237ms total)
T16D0 000:238 Logging started @ 2013-09-28 10:43 (0000ms, 0237ms total)
T16D0 000:238 JLINK_SetWarnOutHandler(...) (0000ms, 0237ms total)
T16D0 000:238 JLINK_OpenEx(...)
Firmware: J-Link ARM V8 compiled Jan 31 2018 18:34:52
Hardware: V8.00
S/N: 20080643
Feature(s): RDI,FlashDL,FlashBP,JFlash,GDBFull  returns O.K. (0010ms, 0247ms total)
T16D0 000:248 JLINK_SetErrorOutHandler(...) (0000ms, 0247ms total)
T16D0 000:248 JLINK_ExecCommand("ProjectFile = "C:\Users\Yandld\Desktop\KL Firmware V0.3 Beta\Project\MDK-ARM\PRJ\JLinkSettings.ini"", ...)  returns 0x00 (0015ms, 0262ms total)
T16D0 000:264 JLINK_ExecCommand("Device = MKL25Z128xxx4", ...)
                JLINK_AddMirrorAreaEx(Addr = 0x00000000, Size = 0x00000000) (0000ms, 0000ms total)
              Device "MKL25Z128XXX4" selected (128 KB flash, 16 KB RAM).  returns 0x00 (0003ms, 0265ms total)
T16D0 000:267 JLINK_ExecCommand("DisableConnectionTimeout", ...)  returns 0x00 (0000ms, 0265ms total)
T16D0 000:267 JLINK_GetHardwareVersion()  returns 0x13880 (0000ms, 0265ms total)
T16D0 000:267 JLINK_GetDLLVersion()  returns 46801 (0000ms, 0265ms total)
T16D0 000:267 JLINK_GetFirmwareString(...) (0000ms, 0265ms total)
T16D0 000:272 JLINK_GetDLLVersion()  returns 46801 (0000ms, 0265ms total)
T16D0 000:272 JLINK_GetCompileDateTime() (0000ms, 0265ms total)
T16D0 000:274 JLINK_GetFirmwareString(...) (0000ms, 0265ms total)
T16D0 000:275 JLINK_GetHardwareVersion()  returns 0x13880 (0000ms, 0265ms total)
T16D0 000:281 JLINK_TIF_Select(JLINKARM_TIF_SWD)  returns 0x00 (0000ms, 0265ms total)
T16D0 000:281 JLINK_SetSpeed(5000) (0000ms, 0265ms total)
T16D0 000:281 JLINK_GetId() >0x108 TIF>Found SWD-DP with ID 0x0BC11477 >0x0D TIF> >0x28 TIF> >0x0D TIF> >0x28 TIF> >0x0D TIF> >0x21 TIF> >0x0D TIF> >0x28 TIF> >0x0D TIF> >0x21 TIF> >0x0D TIF> >0x21 TIF> >0x0D TIF> >0x21 TIF> >0x0D TIF> >0x21 TIF> >0x0D TIF> >0x21 TIF> >0x0D TIF> >0x21 TIF> >0x0D TIF> >0x21 TIF> >0x0D TIF> >0x21 TIF> >0x0D TIF> >0x28 TIF> >0x0D TIF> >0x28 TIF> >0x0D TIF> >0x28 TIF> >0x0D TIF> >0x28 TIF> >0x0D TIF> >0x28 TIF> >0x0D TIF> >0x28 TIF> >0x0D TIF> >0x28 TIF> >0x0D TIF>
 >0x21 TIF> >0x0D TIF> >0x21 TIF> >0x0D TIF> >0x28 TIF> >0x108 TIF>Found SWD-DP with ID 0x0BC11477 >0x0D TIF> >0x21 TIF> >0x0D TIF> >0x28 TIF> >0x0D TIF> >0x28 TIF> >0x0D TIF> >0x21 TIF> >0x0D TIF> >0x21 TIF> >0x0D TIF> >0x28 TIF> >0x0D TIF> >0x21 TIF> >0x0D TIF> >0x21 TIF> >0x0D TIF> >0x21 TIF> >0x0D TIF> >0x21 TIF> >0x0D TIF> >0x28 TIF> >0x0D TIF> >0x21 TIF> >0x0D TIF> >0x28 TIF> >0x0D TIF> >0x28 TIF> >0x0D TIF> >0x21 TIF> >0x0D TIF> >0x21 TIF> >0x0D TIF> >0x28 TIF> >0x0D TIF> >0x21 TIF> >0x0D TIF>
 >0x21 TIF> >0x0D TIF> >0x28 TIF> >0x0D TIF> >0x28 TIF> >0x0D TIF> >0x28 TIF> >0x0D TIF> >0x21 TIF> >0x0D TIF> >0x21 TIF> >0x0D TIF> >0x28 TIF> >0x0D TIF> >0x21 TIF> >0x0D TIF> >0x21 TIF> >0x0D TIF> >0x21 TIF> >0x0D TIF> >0x28 TIF> >0x0D TIF> >0x21 TIF> >0x0D TIF> >0x21 TIF> >0x0D TIF> >0x28 TIF> >0x0D TIF> >0x21 TIF> >0x0D TIF> >0x21 TIF>FPUnit: 2 code (BP) slots and 0 literal slots >0x0D TIF> >0x28 TIF> >0x0D TIF> >0x21 TIF> >0x0D TIF> >0x21 TIF> >0x0D TIF> >0x28 TIF> >0x0D TIF> >0x21 TIF> >0x0D TIF>
 >0x21 TIF> >0x0D TIF> >0x28 TIF> >0x0D TIF> >0x21 TIF> >0x0D TIF> >0x21 TIF> >0x0D TIF> >0x28 TIF> >0x0D TIF> >0x21 TIF> >0x0D TIF> >0x21 TIF>Found Cortex-M0 r0p0, Little endian. >0x0D TIF> >0x28 TIF> -- CPU_ReadMem(4 bytes @ 0x40048100)Kinetis L-series (setup): Disabling watchdog. -- CPU_WriteMem(4 bytes @ 0x40048100) >0x0D TIF> >0x21 TIF>  returns 0x0BC11477 (0099ms, 0364ms total)
T16D0 000:380 JLINK_TIF_Select(JLINKARM_TIF_SWD)  returns 0x00 (0000ms, 0364ms total)
T16D0 000:380 JLINK_JTAG_StoreRaw(..., 0x108 Bits)  returns 0x00 (0000ms, 0364ms total)
T16D0 000:380 JLINK_JTAG_GetU32(BitPos = 227) >0x108 TIF>  returns 0x0BC11477 (0000ms, 0364ms total)
T16D0 000:380 JLINK_JTAG_StoreRaw(..., 0x08 Bits)  returns 0x00 (0001ms, 0365ms total)
T16D0 000:381 JLINK_JTAG_StoreRaw(..., 0x03 Bits)  returns 0x08 (0000ms, 0365ms total)
T16D0 000:381 JLINK_JTAG_StoreRaw(..., 0x28 Bits)  returns 0x0B (0000ms, 0365ms total)
T16D0 000:381 JLINK_JTAG_GetU8(BitPos = 8) >0x33 TIF>  returns 0xB9 (0000ms, 0365ms total)
T16D0 000:381 JLINK_JTAG_GetU32(BitPos = 11)  returns 0x0BC11477 (0000ms, 0365ms total)
T16D0 000:381 JLINK_JTAG_GetU8(BitPos = 43)  returns 0x00 (0000ms, 0365ms total)
T16D0 000:381 JLINK_JTAG_StoreRaw(..., 0x08 Bits)  returns 0x00 (0000ms, 0365ms total)
T16D0 000:381 JLINK_JTAG_StoreRaw(..., 0x03 Bits)  returns 0x08 (0000ms, 0365ms total)
T16D0 000:381 JLINK_JTAG_StoreRaw(..., 0x28 Bits)  returns 0x0B (0000ms, 0365ms total)
T16D0 000:381 JLINK_JTAG_GetU8(BitPos = 8) >0x33 TIF>  returns 0x19 (0001ms, 0366ms total)
T16D0 000:382 JLINK_JTAG_GetU32(BitPos = 11)  returns 0xF0000043 (0000ms, 0366ms total)
T16D0 000:382 JLINK_JTAG_GetU8(BitPos = 43)  returns 0x03 (0000ms, 0366ms total)
T16D0 000:382 JLINK_JTAG_StoreRaw(..., 0x08 Bits)  returns 0x00 (0000ms, 0366ms total)
T16D0 000:382 JLINK_JTAG_StoreRaw(..., 0x03 Bits)  returns 0x08 (0000ms, 0366ms total)
T16D0 000:382 JLINK_JTAG_StoreRaw(..., 0x02 Bits)  returns 0x0B (0000ms, 0366ms total)
T16D0 000:382 JLINK_JTAG_StoreRaw(..., 0x28 Bits)  returns 0x0D (0000ms, 0366ms total)
T16D0 000:382 JLINK_JTAG_GetU8(BitPos = 8) >0x35 TIF>  returns 0xC1 (0000ms, 0366ms total)
T16D0 000:382 JLINK_JTAG_StoreRaw(..., 0x08 Bits)  returns 0x00 (0000ms, 0366ms total)
T16D0 000:382 JLINK_JTAG_StoreRaw(..., 0x03 Bits)  returns 0x08 (0000ms, 0366ms total)
T16D0 000:382 JLINK_JTAG_StoreRaw(..., 0x28 Bits)  returns 0x0B (0000ms, 0366ms total)
T16D0 000:382 JLINK_JTAG_GetU8(BitPos = 8) >0x33 TIF>  returns 0x09 (0001ms, 0367ms total)
T16D0 000:383 JLINK_JTAG_GetU32(BitPos = 11)  returns 0xF0000041 (0000ms, 0367ms total)
T16D0 000:383 JLINK_JTAG_GetU8(BitPos = 43)  returns 0x00 (0000ms, 0367ms total)
T16D0 000:383 JLINK_JTAG_StoreRaw(..., 0x08 Bits)  returns 0x00 (0000ms, 0367ms total)
T16D0 000:383 JLINK_JTAG_StoreRaw(..., 0x03 Bits)  returns 0x08 (0000ms, 0367ms total)
T16D0 000:383 JLINK_JTAG_StoreRaw(..., 0x02 Bits)  returns 0x0B (0000ms, 0367ms total)
T16D0 000:383 JLINK_JTAG_StoreRaw(..., 0x28 Bits)  returns 0x0D (0000ms, 0367ms total)
T16D0 000:383 JLINK_JTAG_GetU8(BitPos = 8) >0x35 TIF>  returns 0x21 (0001ms, 0368ms total)
T16D0 000:384 JLINK_JTAG_StoreRaw(..., 0x08 Bits)  returns 0x00 (0000ms, 0368ms total)
T16D0 000:384 JLINK_JTAG_StoreRaw(..., 0x03 Bits)  returns 0x08 (0000ms, 0368ms total)
T16D0 000:384 JLINK_JTAG_StoreRaw(..., 0x28 Bits)  returns 0x0B (0000ms, 0368ms total)
T16D0 000:384 JLINK_JTAG_GetU8(BitPos = 8) >0x33 TIF>  returns 0x09 (0000ms, 0368ms total)
T16D0 000:384 JLINK_JTAG_GetU32(BitPos = 11)  returns 0xF0000041 (0000ms, 0368ms total)
T16D0 000:384 JLINK_JTAG_GetU8(BitPos = 43)  returns 0x00 (0000ms, 0368ms total)
T16D0 000:386 JLINK_ClrRESET() (0002ms, 0370ms total)
T16D0 000:588 JLINK_JTAG_StoreRaw(..., 0x08 Bits)  returns 0x00 (0000ms, 0370ms total)
T16D0 000:588 JLINK_JTAG_StoreRaw(..., 0x03 Bits)  returns 0x08 (0000ms, 0370ms total)
T16D0 000:588 JLINK_JTAG_StoreRaw(..., 0x02 Bits)  returns 0x0B (0000ms, 0370ms total)
T16D0 000:588 JLINK_JTAG_StoreRaw(..., 0x28 Bits)  returns 0x0D (0000ms, 0370ms total)
T16D0 000:588 JLINK_JTAG_GetU8(BitPos = 8) >0x35 TIF>  returns 0xC1 (0001ms, 0371ms total)
T16D0 000:589 JLINK_JTAG_StoreRaw(..., 0x08 Bits)  returns 0x00 (0000ms, 0371ms total)
T16D0 000:589 JLINK_JTAG_StoreRaw(..., 0x03 Bits)  returns 0x08 (0000ms, 0371ms total)
T16D0 000:589 JLINK_JTAG_StoreRaw(..., 0x02 Bits)  returns 0x0B (0000ms, 0371ms total)
T16D0 000:589 JLINK_JTAG_StoreRaw(..., 0x28 Bits)  returns 0x0D (0000ms, 0371ms total)
T16D0 000:589 JLINK_JTAG_GetU8(BitPos = 8) >0x35 TIF>  returns 0x01 (0000ms, 0371ms total)
T16D0 000:589 JLINK_JTAG_StoreRaw(..., 0x08 Bits)  returns 0x00 (0001ms, 0372ms total)
T16D0 000:590 JLINK_JTAG_StoreRaw(..., 0x03 Bits)  returns 0x08 (0000ms, 0372ms total)
T16D0 000:590 JLINK_JTAG_StoreRaw(..., 0x28 Bits)  returns 0x0B (0000ms, 0372ms total)
T16D0 000:590 JLINK_JTAG_GetU8(BitPos = 8) >0x33 TIF>  returns 0x01 (0000ms, 0372ms total)
T16D0 000:590 JLINK_JTAG_GetU32(BitPos = 11)  returns 0x00000000 (0000ms, 0372ms total)
T16D0 000:590 JLINK_JTAG_GetU8(BitPos = 43)  returns 0x00 (0000ms, 0372ms total)
T16D0 000:590 JLINK_JTAG_StoreRaw(..., 0x08 Bits)  returns 0x00 (0000ms, 0372ms total)
T16D0 000:590 JLINK_JTAG_StoreRaw(..., 0x03 Bits)  returns 0x08 (0000ms, 0372ms total)
T16D0 000:590 JLINK_JTAG_StoreRaw(..., 0x28 Bits)  returns 0x0B (0000ms, 0372ms total)
T16D0 000:590 JLINK_JTAG_GetU8(BitPos = 8) >0x33 TIF>  returns 0x99 (0001ms, 0373ms total)
T16D0 000:591 JLINK_JTAG_GetU32(BitPos = 11)  returns 0x00000033 (0000ms, 0373ms total)
T16D0 000:591 JLINK_JTAG_GetU8(BitPos = 43)  returns 0x00 (0000ms, 0373ms total)
T16D0 000:591 JLINK_GetDeviceFamily()  returns 6 (0000ms, 0373ms total)
T16D0 000:593 JLINK_ReadMem (0xE00FFFF0, 0x0010 Bytes, ...) -- CPU is running -- CPU_ReadMem(16 bytes @ 0xE00FFFF0) -- Data:  0D 00 00 00 10 00 00 00 05 00 00 00 B1 00 00 00  returns 0x00 (0001ms, 0374ms total)
T16D0 000:594 JLINK_ReadMem (0xE00FFFD0, 0x0020 Bytes, ...) -- CPU is running -- CPU_ReadMem(32 bytes @ 0xE00FFFD0) -- Data:  04 00 00 00 00 00 00 00 00 00 00 00 00 00 00 00 ...  returns 0x00 (0001ms, 0375ms total)
T16D0 000:595 JLINK_ReadMem (0xE00FF000, 0x0018 Bytes, ...) -- CPU is running -- CPU_ReadMem(24 bytes @ 0xE00FF000) -- Data:  03 F0 F0 FF 03 20 F0 FF 03 30 F0 FF 00 00 00 00 ...  returns 0x00 (0001ms, 0376ms total)
T16D0 000:596 JLINK_ReadMemU32(0xE000ED00, 0x0001 Items, ...) -- CPU is running -- CPU_ReadMem(4 bytes @ 0xE000ED00) -- Data:  00 C6 0C 41  returns 0x01 (0001ms, 0377ms total)
T16D0 000:597 JLINK_SetResetType(JLINKARM_RESET_TYPE_NORMAL)  returns JLINKARM_RESET_TYPE_NORMAL (0000ms, 0377ms total)
T16D0 000:597 JLINK_Reset() -- CPU_ReadMem(4 bytes @ 0x40048100)Kinetis L-series (setup): Disabling watchdog. -- CPU_WriteMem(4 bytes @ 0x40048100) -- CPU_WriteMem(4 bytes @ 0xE0002000) (0342ms, 0719ms total)
T16D0 000:939 JLINK_Halt()  returns 0x00 (0000ms, 0719ms total)
T16D0 000:939 JLINK_IsHalted()  returns TRUE (0000ms, 0719ms total)
T16D0 000:939 JLINK_ReadMemU32(0xE000EDF0, 0x0001 Items, ...) -- CPU_ReadMem(4 bytes @ 0xE000EDF0) -- Data:  03 00 03 00  returns 0x01 (0001ms, 0720ms total)
T16D0 000:940 JLINK_WriteU32(0xE000EDF0, 0xA05F0003) -- CPU_WriteMem(4 bytes @ 0xE000EDF0)  returns 0x00 (0000ms, 0720ms total)
T16D0 000:940 JLINK_WriteU32(0xE000EDFC, 0x01000000) -- CPU_WriteMem(4 bytes @ 0xE000EDFC)  returns 0x00 (0001ms, 0721ms total)
T16D0 000:966 JLINK_GetHWStatus(...)  returns 0x00 (0001ms, 0722ms total)
T16D0 000:977 JLINK_GetNumBPUnits(Type = 0xFFFFFF00)  returns 0x02 (0000ms, 0722ms total)
T16D0 000:977 JLINK_GetNumBPUnits(Type = 0xF0)  returns 0x2000 (0000ms, 0722ms total)
T16D0 000:977 JLINK_GetNumWPUnits()  returns 0x02 (0000ms, 0722ms total)
T16D0 000:984 JLINK_GetSpeed()  returns 0xFA0 (0000ms, 0722ms total)
T16D0 000:987 JLINK_ReadMemU32(0xE000E004, 0x0001 Items, ...) -- CPU_ReadMem(4 bytes @ 0xE000E004) -- Data:  00 00 00 00  returns 0x01 (0001ms, 0723ms total)
T16D0 000:988 JLINK_Halt()  returns 0x00 (0000ms, 0723ms total)
T16D0 000:988 JLINK_IsHalted()  returns TRUE (0000ms, 0723ms total)
T16D0 001:061 JLINK_WriteMem(0x1FFFF000, 0x0628 Bytes, ...) -- Data:  00 BE 0A E0 0D 78 2D 06 68 40 08 24 40 00 00 D3 ... -- CPU_WriteMem(1576 bytes @ 0x1FFFF000)  returns 0x628 (0010ms, 0733ms total)
T16D0 001:071 JLINK_WriteReg(R0, 0x00000000)  returns 0x00 (0000ms, 0733ms total)
T16D0 001:071 JLINK_WriteReg(R1, 0x007A1200)  returns 0x00 (0000ms, 0733ms total)
T16D0 001:071 JLINK_WriteReg(R2, 0x00000001)  returns 0x00 (0000ms, 0733ms total)
T16D0 001:071 JLINK_WriteReg(R3, 0x00000000)  returns 0x00 (0000ms, 0733ms total)
T16D0 001:071 JLINK_WriteReg(R4, 0x00000000)  returns 0x00 (0000ms, 0733ms total)
T16D0 001:071 JLINK_WriteReg(R5, 0x00000000)  returns 0x00 (0000ms, 0733ms total)
T16D0 001:071 JLINK_WriteReg(R6, 0x00000000)  returns 0x00 (0000ms, 0733ms total)
T16D0 001:071 JLINK_WriteReg(R7, 0x00000000)  returns 0x00 (0000ms, 0733ms total)
T16D0 001:071 JLINK_WriteReg(R8, 0x00000000)  returns 0x00 (0000ms, 0733ms total)
T16D0 001:071 JLINK_WriteReg(R9, 0x1FFFF620)  returns 0x00 (0000ms, 0733ms total)
T16D0 001:071 JLINK_WriteReg(R10, 0x00000000)  returns 0x00 (0000ms, 0733ms total)
T16D0 001:071 JLINK_WriteReg(R11, 0x00000000)  returns 0x00 (0000ms, 0733ms total)
T16D0 001:071 JLINK_WriteReg(R12, 0x00000000)  returns 0x00 (0000ms, 0733ms total)
T16D0 001:071 JLINK_WriteReg(R13, 0x1FFFF800)  returns 0x00 (0000ms, 0733ms total)
T16D0 001:071 JLINK_WriteReg(R14, 0x1FFFF001)  returns 0x00 (0000ms, 0733ms total)
T16D0 001:071 JLINK_WriteReg(R15, 0x1FFFF020)  returns 0x00 (0000ms, 0733ms total)
T16D0 001:071 JLINK_WriteReg(XPSR, 0x01000000)  returns 0x00 (0000ms, 0733ms total)
T16D0 001:072 JLINK_WriteReg(MSP, 0x1FFFF800)  returns 0x00 (0000ms, 0734ms total)
T16D0 001:072 JLINK_WriteReg(PSP, 0x1FFFF800)  returns 0x00 (0000ms, 0734ms total)
T16D0 001:072 JLINK_WriteReg(CFBP, 0x00000000)  returns 0x00 (0000ms, 0734ms total)
T16D0 001:072 JLINK_SetBPEx(Addr = 0x1FFFF000, Type = 0xFFFFFFF2)  returns 0x00000001 (0000ms, 0734ms total)
T16D0 001:072 JLINK_Go() -- CPU_WriteMem(4 bytes @ 0xE0002008) -- CPU_WriteMem(4 bytes @ 0xE000200C) (0004ms, 0738ms total)
T16D0 001:076 JLINK_IsHalted()  returns TRUE (0003ms, 0741ms total)
T16D0 001:079 JLINK_ReadReg(R15)  returns 0x1FFFF000 (0000ms, 0738ms total)
T16D0 001:079 JLINK_ClrBPEx(BPHandle = 0x00000001)  returns 0x00 (0000ms, 0738ms total)
T16D0 001:079 JLINK_ReadReg(R0)  returns 0x00000000 (0000ms, 0738ms total)
T16D0 001:080 JLINK_WriteReg(R0, 0x00000000)  returns 0x00 (0000ms, 0738ms total)
T16D0 001:080 JLINK_WriteReg(R1, 0x00000400)  returns 0x00 (0000ms, 0738ms total)
T16D0 001:080 JLINK_WriteReg(R2, 0x000000FF)  returns 0x00 (0000ms, 0738ms total)
T16D0 001:080 JLINK_WriteReg(R3, 0x00000000)  returns 0x00 (0000ms, 0738ms total)
T16D0 001:080 JLINK_WriteReg(R4, 0x00000000)  returns 0x00 (0000ms, 0738ms total)
T16D0 001:080 JLINK_WriteReg(R5, 0x00000000)  returns 0x00 (0000ms, 0738ms total)
T16D0 001:080 JLINK_WriteReg(R6, 0x00000000)  returns 0x00 (0000ms, 0738ms total)
T16D0 001:080 JLINK_WriteReg(R7, 0x00000000)  returns 0x00 (0000ms, 0738ms total)
T16D0 001:080 JLINK_WriteReg(R8, 0x00000000)  returns 0x00 (0000ms, 0738ms total)
T16D0 001:080 JLINK_WriteReg(R9, 0x1FFFF620)  returns 0x00 (0000ms, 0738ms total)
T16D0 001:080 JLINK_WriteReg(R10, 0x00000000)  returns 0x00 (0000ms, 0738ms total)
T16D0 001:080 JLINK_WriteReg(R11, 0x00000000)  returns 0x00 (0000ms, 0738ms total)
T16D0 001:080 JLINK_WriteReg(R12, 0x00000000)  returns 0x00 (0000ms, 0738ms total)
T16D0 001:080 JLINK_WriteReg(R13, 0x1FFFF800)  returns 0x00 (0000ms, 0738ms total)
T16D0 001:080 JLINK_WriteReg(R14, 0x1FFFF001)  returns 0x00 (0000ms, 0738ms total)
T16D0 001:080 JLINK_WriteReg(R15, 0x1FFFF068)  returns 0x00 (0000ms, 0738ms total)
T16D0 001:080 JLINK_WriteReg(XPSR, 0x01000000)  returns 0x00 (0000ms, 0738ms total)
T16D0 001:080 JLINK_WriteReg(MSP, 0x1FFFF800)  returns 0x00 (0000ms, 0738ms total)
T16D0 001:080 JLINK_WriteReg(PSP, 0x1FFFF800)  returns 0x00 (0001ms, 0739ms total)
T16D0 001:081 JLINK_WriteReg(CFBP, 0x00000000)  returns 0x00 (0000ms, 0739ms total)
T16D0 001:081 JLINK_SetBPEx(Addr = 0x1FFFF000, Type = 0xFFFFFFF2)  returns 0x00000002 (0000ms, 0739ms total)
T16D0 001:081 JLINK_Go() (0002ms, 0741ms total)
T16D0 001:083 JLINK_IsHalted()  returns TRUE (0003ms, 0744ms total)
T16D0 001:086 JLINK_ReadReg(R15)  returns 0x1FFFF000 (0000ms, 0741ms total)
T16D0 001:086 JLINK_ClrBPEx(BPHandle = 0x00000002)  returns 0x00 (0000ms, 0741ms total)
T16D0 001:086 JLINK_ReadReg(R0)  returns 0x00000000 (0000ms, 0741ms total)
T16D0 001:087 JLINK_WriteReg(R0, 0x00000400)  returns 0x00 (0000ms, 0741ms total)
T16D0 001:087 JLINK_WriteReg(R1, 0x00000400)  returns 0x00 (0000ms, 0741ms total)
T16D0 001:087 JLINK_WriteReg(R2, 0x000000FF)  returns 0x00 (0000ms, 0741ms total)
T16D0 001:087 JLINK_WriteReg(R3, 0x00000000)  returns 0x00 (0000ms, 0741ms total)
T16D0 001:087 JLINK_WriteReg(R4, 0x00000000)  returns 0x00 (0000ms, 0741ms total)
T16D0 001:087 JLINK_WriteReg(R5, 0x00000000)  returns 0x00 (0000ms, 0741ms total)
T16D0 001:087 JLINK_WriteReg(R6, 0x00000000)  returns 0x00 (0000ms, 0741ms total)
T16D0 001:087 JLINK_WriteReg(R7, 0x00000000)  returns 0x00 (0000ms, 0741ms total)
T16D0 001:087 JLINK_WriteReg(R8, 0x00000000)  returns 0x00 (0000ms, 0741ms total)
T16D0 001:087 JLINK_WriteReg(R9, 0x1FFFF620)  returns 0x00 (0000ms, 0741ms total)
T16D0 001:087 JLINK_WriteReg(R10, 0x00000000)  returns 0x00 (0000ms, 0741ms total)
T16D0 001:087 JLINK_WriteReg(R11, 0x00000000)  returns 0x00 (0000ms, 0741ms total)
T16D0 001:087 JLINK_WriteReg(R12, 0x00000000)  returns 0x00 (0000ms, 0741ms total)
T16D0 001:087 JLINK_WriteReg(R13, 0x1FFFF800)  returns 0x00 (0000ms, 0741ms total)
T16D0 001:087 JLINK_WriteReg(R14, 0x1FFFF001)  returns 0x00 (0000ms, 0741ms total)
T16D0 001:087 JLINK_WriteReg(R15, 0x1FFFF068)  returns 0x00 (0000ms, 0741ms total)
T16D0 001:088 JLINK_WriteReg(XPSR, 0x01000000)  returns 0x00 (0000ms, 0742ms total)
T16D0 001:088 JLINK_WriteReg(MSP, 0x1FFFF800)  returns 0x00 (0000ms, 0742ms total)
T16D0 001:088 JLINK_WriteReg(PSP, 0x1FFFF800)  returns 0x00 (0000ms, 0742ms total)
T16D0 001:088 JLINK_WriteReg(CFBP, 0x00000000)  returns 0x00 (0000ms, 0742ms total)
T16D0 001:088 JLINK_SetBPEx(Addr = 0x1FFFF000, Type = 0xFFFFFFF2)  returns 0x00000003 (0000ms, 0742ms total)
T16D0 001:088 JLINK_Go() (0002ms, 0744ms total)
T16D0 001:090 JLINK_IsHalted()  returns TRUE (0003ms, 0747ms total)
T16D0 001:093 JLINK_ReadReg(R15)  returns 0x1FFFF000 (0000ms, 0744ms total)
T16D0 001:093 JLINK_ClrBPEx(BPHandle = 0x00000003)  returns 0x00 (0000ms, 0744ms total)
T16D0 001:093 JLINK_ReadReg(R0)  returns 0x00000001 (0000ms, 0744ms total)
T16D0 001:093 JLINK_WriteReg(R0, 0x00000400)  returns 0x00 (0000ms, 0744ms total)
T16D0 001:093 JLINK_WriteReg(R1, 0x00000400)  returns 0x00 (0000ms, 0744ms total)
T16D0 001:093 JLINK_WriteReg(R2, 0x000000FF)  returns 0x00 (0000ms, 0744ms total)
T16D0 001:093 JLINK_WriteReg(R3, 0x00000000)  returns 0x00 (0000ms, 0744ms total)
T16D0 001:093 JLINK_WriteReg(R4, 0x00000000)  returns 0x00 (0000ms, 0744ms total)
T16D0 001:093 JLINK_WriteReg(R5, 0x00000000)  returns 0x00 (0000ms, 0744ms total)
T16D0 001:093 JLINK_WriteReg(R6, 0x00000000)  returns 0x00 (0000ms, 0744ms total)
T16D0 001:093 JLINK_WriteReg(R7, 0x00000000)  returns 0x00 (0001ms, 0745ms total)
T16D0 001:094 JLINK_WriteReg(R8, 0x00000000)  returns 0x00 (0000ms, 0745ms total)
T16D0 001:094 JLINK_WriteReg(R9, 0x1FFFF620)  returns 0x00 (0000ms, 0745ms total)
T16D0 001:094 JLINK_WriteReg(R10, 0x00000000)  returns 0x00 (0000ms, 0745ms total)
T16D0 001:094 JLINK_WriteReg(R11, 0x00000000)  returns 0x00 (0000ms, 0745ms total)
T16D0 001:094 JLINK_WriteReg(R12, 0x00000000)  returns 0x00 (0000ms, 0745ms total)
T16D0 001:094 JLINK_WriteReg(R13, 0x1FFFF800)  returns 0x00 (0000ms, 0745ms total)
T16D0 001:094 JLINK_WriteReg(R14, 0x1FFFF001)  returns 0x00 (0000ms, 0745ms total)
T16D0 001:094 JLINK_WriteReg(R15, 0x1FFFF0BC)  returns 0x00 (0000ms, 0745ms total)
T16D0 001:094 JLINK_WriteReg(XPSR, 0x01000000)  returns 0x00 (0000ms, 0745ms total)
T16D0 001:094 JLINK_WriteReg(MSP, 0x1FFFF800)  returns 0x00 (0000ms, 0745ms total)
T16D0 001:094 JLINK_WriteReg(PSP, 0x1FFFF800)  returns 0x00 (0000ms, 0745ms total)
T16D0 001:094 JLINK_WriteReg(CFBP, 0x00000000)  returns 0x00 (0000ms, 0745ms total)
T16D0 001:094 JLINK_SetBPEx(Addr = 0x1FFFF000, Type = 0xFFFFFFF2)  returns 0x00000004 (0000ms, 0745ms total)
T16D0 001:094 JLINK_Go() (0002ms, 0747ms total)
T16D0 001:096 JLINK_IsHalted()  returns FALSE (0001ms, 0748ms total)
T16D0 001:144 JLINK_IsHalted()  returns TRUE (0003ms, 0750ms total)
T16D0 001:147 JLINK_ReadReg(R15)  returns 0x1FFFF000 (0000ms, 0747ms total)
T16D0 001:147 JLINK_ClrBPEx(BPHandle = 0x00000004)  returns 0x00 (0000ms, 0747ms total)
T16D0 001:147 JLINK_ReadReg(R0)  returns 0x00000000 (0000ms, 0747ms total)
T16D0 001:147 JLINK_WriteReg(R0, 0x00000800)  returns 0x00 (0000ms, 0747ms total)
T16D0 001:147 JLINK_WriteReg(R1, 0x00000400)  returns 0x00 (0000ms, 0747ms total)
T16D0 001:147 JLINK_WriteReg(R2, 0x000000FF)  returns 0x00 (0000ms, 0747ms total)
T16D0 001:147 JLINK_WriteReg(R3, 0x00000000)  returns 0x00 (0000ms, 0747ms total)
T16D0 001:147 JLINK_WriteReg(R4, 0x00000000)  returns 0x00 (0000ms, 0747ms total)
T16D0 001:147 JLINK_WriteReg(R5, 0x00000000)  returns 0x00 (0000ms, 0747ms total)
T16D0 001:147 JLINK_WriteReg(R6, 0x00000000)  returns 0x00 (0000ms, 0747ms total)
T16D0 001:147 JLINK_WriteReg(R7, 0x00000000)  returns 0x00 (0000ms, 0747ms total)
T16D0 001:147 JLINK_WriteReg(R8, 0x00000000)  returns 0x00 (0000ms, 0747ms total)
T16D0 001:147 JLINK_WriteReg(R9, 0x1FFFF620)  returns 0x00 (0000ms, 0747ms total)
T16D0 001:147 JLINK_WriteReg(R10, 0x00000000)  returns 0x00 (0000ms, 0747ms total)
T16D0 001:147 JLINK_WriteReg(R11, 0x00000000)  returns 0x00 (0000ms, 0747ms total)
T16D0 001:147 JLINK_WriteReg(R12, 0x00000000)  returns 0x00 (0000ms, 0747ms total)
T16D0 001:147 JLINK_WriteReg(R13, 0x1FFFF800)  returns 0x00 (0000ms, 0747ms total)
T16D0 001:147 JLINK_WriteReg(R14, 0x1FFFF001)  returns 0x00 (0000ms, 0747ms total)
T16D0 001:147 JLINK_WriteReg(R15, 0x1FFFF068)  returns 0x00 (0000ms, 0747ms total)
T16D0 001:147 JLINK_WriteReg(XPSR, 0x01000000)  returns 0x00 (0000ms, 0747ms total)
T16D0 001:147 JLINK_WriteReg(MSP, 0x1FFFF800)  returns 0x00 (0000ms, 0747ms total)
T16D0 001:147 JLINK_WriteReg(PSP, 0x1FFFF800)  returns 0x00 (0000ms, 0747ms total)
T16D0 001:147 JLINK_WriteReg(CFBP, 0x00000000)  returns 0x00 (0000ms, 0747ms total)
T16D0 001:147 JLINK_SetBPEx(Addr = 0x1FFFF000, Type = 0xFFFFFFF2)  returns 0x00000005 (0000ms, 0747ms total)
T16D0 001:147 JLINK_Go() (0002ms, 0749ms total)
T16D0 001:149 JLINK_IsHalted()  returns TRUE (0003ms, 0752ms total)
T16D0 001:152 JLINK_ReadReg(R15)  returns 0x1FFFF000 (0000ms, 0749ms total)
T16D0 001:152 JLINK_ClrBPEx(BPHandle = 0x00000005)  returns 0x00 (0000ms, 0749ms total)
T16D0 001:152 JLINK_ReadReg(R0)  returns 0x00000000 (0000ms, 0749ms total)
T16D0 001:153 JLINK_WriteReg(R0, 0x00000C00)  returns 0x00 (0000ms, 0749ms total)
T16D0 001:153 JLINK_WriteReg(R1, 0x00000400)  returns 0x00 (0000ms, 0749ms total)
T16D0 001:153 JLINK_WriteReg(R2, 0x000000FF)  returns 0x00 (0000ms, 0749ms total)
T16D0 001:153 JLINK_WriteReg(R3, 0x00000000)  returns 0x00 (0000ms, 0749ms total)
T16D0 001:153 JLINK_WriteReg(R4, 0x00000000)  returns 0x00 (0000ms, 0749ms total)
T16D0 001:153 JLINK_WriteReg(R5, 0x00000000)  returns 0x00 (0000ms, 0749ms total)
T16D0 001:153 JLINK_WriteReg(R6, 0x00000000)  returns 0x00 (0000ms, 0749ms total)
T16D0 001:153 JLINK_WriteReg(R7, 0x00000000)  returns 0x00 (0000ms, 0749ms total)
T16D0 001:153 JLINK_WriteReg(R8, 0x00000000)  returns 0x00 (0000ms, 0749ms total)
T16D0 001:153 JLINK_WriteReg(R9, 0x1FFFF620)  returns 0x00 (0000ms, 0749ms total)
T16D0 001:153 JLINK_WriteReg(R10, 0x00000000)  returns 0x00 (0000ms, 0749ms total)
T16D0 001:153 JLINK_WriteReg(R11, 0x00000000)  returns 0x00 (0000ms, 0749ms total)
T16D0 001:153 JLINK_WriteReg(R12, 0x00000000)  returns 0x00 (0000ms, 0749ms total)
T16D0 001:153 JLINK_WriteReg(R13, 0x1FFFF800)  returns 0x00 (0000ms, 0749ms total)
T16D0 001:153 JLINK_WriteReg(R14, 0x1FFFF001)  returns 0x00 (0000ms, 0749ms total)
T16D0 001:153 JLINK_WriteReg(R15, 0x1FFFF068)  returns 0x00 (0000ms, 0749ms total)
T16D0 001:153 JLINK_WriteReg(XPSR, 0x01000000)  returns 0x00 (0000ms, 0749ms total)
T16D0 001:153 JLINK_WriteReg(MSP, 0x1FFFF800)  returns 0x00 (0000ms, 0749ms total)
T16D0 001:153 JLINK_WriteReg(PSP, 0x1FFFF800)  returns 0x00 (0000ms, 0749ms total)
T16D0 001:153 JLINK_WriteReg(CFBP, 0x00000000)  returns 0x00 (0000ms, 0749ms total)
T16D0 001:153 JLINK_SetBPEx(Addr = 0x1FFFF000, Type = 0xFFFFFFF2)  returns 0x00000006 (0000ms, 0749ms total)
T16D0 001:153 JLINK_Go() (0002ms, 0751ms total)
T16D0 001:155 JLINK_IsHalted()  returns TRUE (0003ms, 0754ms total)
T16D0 001:158 JLINK_ReadReg(R15)  returns 0x1FFFF000 (0000ms, 0751ms total)
T16D0 001:158 JLINK_ClrBPEx(BPHandle = 0x00000006)  returns 0x00 (0000ms, 0751ms total)
T16D0 001:158 JLINK_ReadReg(R0)  returns 0x00000000 (0000ms, 0751ms total)
T16D0 001:159 JLINK_WriteReg(R0, 0x00001000)  returns 0x00 (0000ms, 0751ms total)
T16D0 001:159 JLINK_WriteReg(R1, 0x00000400)  returns 0x00 (0000ms, 0751ms total)
T16D0 001:159 JLINK_WriteReg(R2, 0x000000FF)  returns 0x00 (0000ms, 0751ms total)
T16D0 001:159 JLINK_WriteReg(R3, 0x00000000)  returns 0x00 (0000ms, 0751ms total)
T16D0 001:159 JLINK_WriteReg(R4, 0x00000000)  returns 0x00 (0000ms, 0751ms total)
T16D0 001:159 JLINK_WriteReg(R5, 0x00000000)  returns 0x00 (0000ms, 0751ms total)
T16D0 001:159 JLINK_WriteReg(R6, 0x00000000)  returns 0x00 (0000ms, 0751ms total)
T16D0 001:159 JLINK_WriteReg(R7, 0x00000000)  returns 0x00 (0000ms, 0751ms total)
T16D0 001:159 JLINK_WriteReg(R8, 0x00000000)  returns 0x00 (0000ms, 0751ms total)
T16D0 001:159 JLINK_WriteReg(R9, 0x1FFFF620)  returns 0x00 (0000ms, 0751ms total)
T16D0 001:159 JLINK_WriteReg(R10, 0x00000000)  returns 0x00 (0000ms, 0751ms total)
T16D0 001:159 JLINK_WriteReg(R11, 0x00000000)  returns 0x00 (0000ms, 0751ms total)
T16D0 001:159 JLINK_WriteReg(R12, 0x00000000)  returns 0x00 (0000ms, 0751ms total)
T16D0 001:159 JLINK_WriteReg(R13, 0x1FFFF800)  returns 0x00 (0000ms, 0751ms total)
T16D0 001:159 JLINK_WriteReg(R14, 0x1FFFF001)  returns 0x00 (0000ms, 0751ms total)
T16D0 001:159 JLINK_WriteReg(R15, 0x1FFFF068)  returns 0x00 (0000ms, 0751ms total)
T16D0 001:159 JLINK_WriteReg(XPSR, 0x01000000)  returns 0x00 (0000ms, 0751ms total)
T16D0 001:159 JLINK_WriteReg(MSP, 0x1FFFF800)  returns 0x00 (0000ms, 0751ms total)
T16D0 001:159 JLINK_WriteReg(PSP, 0x1FFFF800)  returns 0x00 (0000ms, 0751ms total)
T16D0 001:159 JLINK_WriteReg(CFBP, 0x00000000)  returns 0x00 (0000ms, 0751ms total)
T16D0 001:159 JLINK_SetBPEx(Addr = 0x1FFFF000, Type = 0xFFFFFFF2)  returns 0x00000007 (0000ms, 0751ms total)
T16D0 001:159 JLINK_Go() (0002ms, 0753ms total)
T16D0 001:161 JLINK_IsHalted()  returns TRUE (0003ms, 0756ms total)
T16D0 001:164 JLINK_ReadReg(R15)  returns 0x1FFFF000 (0000ms, 0753ms total)
T16D0 001:164 JLINK_ClrBPEx(BPHandle = 0x00000007)  returns 0x00 (0000ms, 0753ms total)
T16D0 001:164 JLINK_ReadReg(R0)  returns 0x00000000 (0000ms, 0753ms total)
T16D0 001:165 JLINK_WriteReg(R0, 0x00001400)  returns 0x00 (0000ms, 0753ms total)
T16D0 001:165 JLINK_WriteReg(R1, 0x00000400)  returns 0x00 (0000ms, 0753ms total)
T16D0 001:165 JLINK_WriteReg(R2, 0x000000FF)  returns 0x00 (0000ms, 0753ms total)
T16D0 001:165 JLINK_WriteReg(R3, 0x00000000)  returns 0x00 (0000ms, 0753ms total)
T16D0 001:165 JLINK_WriteReg(R4, 0x00000000)  returns 0x00 (0000ms, 0753ms total)
T16D0 001:165 JLINK_WriteReg(R5, 0x00000000)  returns 0x00 (0000ms, 0753ms total)
T16D0 001:165 JLINK_WriteReg(R6, 0x00000000)  returns 0x00 (0000ms, 0753ms total)
T16D0 001:165 JLINK_WriteReg(R7, 0x00000000)  returns 0x00 (0000ms, 0753ms total)
T16D0 001:165 JLINK_WriteReg(R8, 0x00000000)  returns 0x00 (0000ms, 0753ms total)
T16D0 001:165 JLINK_WriteReg(R9, 0x1FFFF620)  returns 0x00 (0000ms, 0753ms total)
T16D0 001:165 JLINK_WriteReg(R10, 0x00000000)  returns 0x00 (0000ms, 0753ms total)
T16D0 001:165 JLINK_WriteReg(R11, 0x00000000)  returns 0x00 (0000ms, 0753ms total)
T16D0 001:165 JLINK_WriteReg(R12, 0x00000000)  returns 0x00 (0000ms, 0753ms total)
T16D0 001:165 JLINK_WriteReg(R13, 0x1FFFF800)  returns 0x00 (0000ms, 0753ms total)
T16D0 001:165 JLINK_WriteReg(R14, 0x1FFFF001)  returns 0x00 (0000ms, 0753ms total)
T16D0 001:165 JLINK_WriteReg(R15, 0x1FFFF068)  returns 0x00 (0000ms, 0753ms total)
T16D0 001:165 JLINK_WriteReg(XPSR, 0x01000000)  returns 0x00 (0000ms, 0753ms total)
T16D0 001:165 JLINK_WriteReg(MSP, 0x1FFFF800)  returns 0x00 (0000ms, 0753ms total)
T16D0 001:165 JLINK_WriteReg(PSP, 0x1FFFF800)  returns 0x00 (0000ms, 0753ms total)
T16D0 001:165 JLINK_WriteReg(CFBP, 0x00000000)  returns 0x00 (0000ms, 0753ms total)
T16D0 001:165 JLINK_SetBPEx(Addr = 0x1FFFF000, Type = 0xFFFFFFF2)  returns 0x00000008 (0000ms, 0753ms total)
T16D0 001:165 JLINK_Go() (0002ms, 0755ms total)
T16D0 001:167 JLINK_IsHalted()  returns TRUE (0003ms, 0758ms total)
T16D0 001:170 JLINK_ReadReg(R15)  returns 0x1FFFF000 (0000ms, 0755ms total)
T16D0 001:170 JLINK_ClrBPEx(BPHandle = 0x00000008)  returns 0x00 (0000ms, 0755ms total)
T16D0 001:170 JLINK_ReadReg(R0)  returns 0x00000000 (0000ms, 0755ms total)
T16D0 001:170 JLINK_WriteReg(R0, 0x00001800)  returns 0x00 (0000ms, 0755ms total)
T16D0 001:170 JLINK_WriteReg(R1, 0x00000400)  returns 0x00 (0000ms, 0755ms total)
T16D0 001:170 JLINK_WriteReg(R2, 0x000000FF)  returns 0x00 (0000ms, 0755ms total)
T16D0 001:171 JLINK_WriteReg(R3, 0x00000000)  returns 0x00 (0000ms, 0756ms total)
T16D0 001:171 JLINK_WriteReg(R4, 0x00000000)  returns 0x00 (0000ms, 0756ms total)
T16D0 001:171 JLINK_WriteReg(R5, 0x00000000)  returns 0x00 (0000ms, 0756ms total)
T16D0 001:171 JLINK_WriteReg(R6, 0x00000000)  returns 0x00 (0000ms, 0756ms total)
T16D0 001:171 JLINK_WriteReg(R7, 0x00000000)  returns 0x00 (0000ms, 0756ms total)
T16D0 001:171 JLINK_WriteReg(R8, 0x00000000)  returns 0x00 (0000ms, 0756ms total)
T16D0 001:171 JLINK_WriteReg(R9, 0x1FFFF620)  returns 0x00 (0000ms, 0756ms total)
T16D0 001:171 JLINK_WriteReg(R10, 0x00000000)  returns 0x00 (0000ms, 0756ms total)
T16D0 001:171 JLINK_WriteReg(R11, 0x00000000)  returns 0x00 (0000ms, 0756ms total)
T16D0 001:171 JLINK_WriteReg(R12, 0x00000000)  returns 0x00 (0000ms, 0756ms total)
T16D0 001:171 JLINK_WriteReg(R13, 0x1FFFF800)  returns 0x00 (0000ms, 0756ms total)
T16D0 001:171 JLINK_WriteReg(R14, 0x1FFFF001)  returns 0x00 (0000ms, 0756ms total)
T16D0 001:171 JLINK_WriteReg(R15, 0x1FFFF068)  returns 0x00 (0000ms, 0756ms total)
T16D0 001:171 JLINK_WriteReg(XPSR, 0x01000000)  returns 0x00 (0000ms, 0756ms total)
T16D0 001:171 JLINK_WriteReg(MSP, 0x1FFFF800)  returns 0x00 (0000ms, 0756ms total)
T16D0 001:171 JLINK_WriteReg(PSP, 0x1FFFF800)  returns 0x00 (0000ms, 0756ms total)
T16D0 001:171 JLINK_WriteReg(CFBP, 0x00000000)  returns 0x00 (0000ms, 0756ms total)
T16D0 001:171 JLINK_SetBPEx(Addr = 0x1FFFF000, Type = 0xFFFFFFF2)  returns 0x00000009 (0000ms, 0756ms total)
T16D0 001:171 JLINK_Go() (0002ms, 0758ms total)
T16D0 001:173 JLINK_IsHalted()  returns TRUE (0003ms, 0761ms total)
T16D0 001:176 JLINK_ReadReg(R15)  returns 0x1FFFF000 (0000ms, 0758ms total)
T16D0 001:176 JLINK_ClrBPEx(BPHandle = 0x00000009)  returns 0x00 (0000ms, 0758ms total)
T16D0 001:176 JLINK_ReadReg(R0)  returns 0x00000000 (0000ms, 0758ms total)
T16D0 001:177 JLINK_WriteReg(R0, 0x00001C00)  returns 0x00 (0000ms, 0758ms total)
T16D0 001:177 JLINK_WriteReg(R1, 0x00000400)  returns 0x00 (0000ms, 0758ms total)
T16D0 001:177 JLINK_WriteReg(R2, 0x000000FF)  returns 0x00 (0000ms, 0758ms total)
T16D0 001:177 JLINK_WriteReg(R3, 0x00000000)  returns 0x00 (0000ms, 0758ms total)
T16D0 001:177 JLINK_WriteReg(R4, 0x00000000)  returns 0x00 (0000ms, 0758ms total)
T16D0 001:177 JLINK_WriteReg(R5, 0x00000000)  returns 0x00 (0000ms, 0758ms total)
T16D0 001:177 JLINK_WriteReg(R6, 0x00000000)  returns 0x00 (0000ms, 0758ms total)
T16D0 001:177 JLINK_WriteReg(R7, 0x00000000)  returns 0x00 (0000ms, 0758ms total)
T16D0 001:177 JLINK_WriteReg(R8, 0x00000000)  returns 0x00 (0000ms, 0758ms total)
T16D0 001:177 JLINK_WriteReg(R9, 0x1FFFF620)  returns 0x00 (0000ms, 0758ms total)
T16D0 001:177 JLINK_WriteReg(R10, 0x00000000)  returns 0x00 (0000ms, 0758ms total)
T16D0 001:177 JLINK_WriteReg(R11, 0x00000000)  returns 0x00 (0000ms, 0758ms total)
T16D0 001:177 JLINK_WriteReg(R12, 0x00000000)  returns 0x00 (0000ms, 0758ms total)
T16D0 001:177 JLINK_WriteReg(R13, 0x1FFFF800)  returns 0x00 (0000ms, 0758ms total)
T16D0 001:177 JLINK_WriteReg(R14, 0x1FFFF001)  returns 0x00 (0000ms, 0758ms total)
T16D0 001:177 JLINK_WriteReg(R15, 0x1FFFF068)  returns 0x00 (0000ms, 0758ms total)
T16D0 001:177 JLINK_WriteReg(XPSR, 0x01000000)  returns 0x00 (0000ms, 0758ms total)
T16D0 001:177 JLINK_WriteReg(MSP, 0x1FFFF800)  returns 0x00 (0000ms, 0758ms total)
T16D0 001:177 JLINK_WriteReg(PSP, 0x1FFFF800)  returns 0x00 (0000ms, 0758ms total)
T16D0 001:177 JLINK_WriteReg(CFBP, 0x00000000)  returns 0x00 (0000ms, 0758ms total)
T16D0 001:177 JLINK_SetBPEx(Addr = 0x1FFFF000, Type = 0xFFFFFFF2)  returns 0x0000000A (0000ms, 0758ms total)
T16D0 001:177 JLINK_Go() (0002ms, 0760ms total)
T16D0 001:179 JLINK_IsHalted()  returns TRUE (0003ms, 0763ms total)
T16D0 001:182 JLINK_ReadReg(R15)  returns 0x1FFFF000 (0000ms, 0760ms total)
T16D0 001:182 JLINK_ClrBPEx(BPHandle = 0x0000000A)  returns 0x00 (0000ms, 0760ms total)
T16D0 001:182 JLINK_ReadReg(R0)  returns 0x00000000 (0000ms, 0760ms total)
T16D0 001:182 JLINK_WriteReg(R0, 0x00002000)  returns 0x00 (0000ms, 0760ms total)
T16D0 001:182 JLINK_WriteReg(R1, 0x00000400)  returns 0x00 (0000ms, 0760ms total)
T16D0 001:182 JLINK_WriteReg(R2, 0x000000FF)  returns 0x00 (0000ms, 0760ms total)
T16D0 001:182 JLINK_WriteReg(R3, 0x00000000)  returns 0x00 (0000ms, 0760ms total)
T16D0 001:182 JLINK_WriteReg(R4, 0x00000000)  returns 0x00 (0000ms, 0760ms total)
T16D0 001:182 JLINK_WriteReg(R5, 0x00000000)  returns 0x00 (0000ms, 0760ms total)
T16D0 001:182 JLINK_WriteReg(R6, 0x00000000)  returns 0x00 (0000ms, 0760ms total)
T16D0 001:182 JLINK_WriteReg(R7, 0x00000000)  returns 0x00 (0000ms, 0760ms total)
T16D0 001:182 JLINK_WriteReg(R8, 0x00000000)  returns 0x00 (0000ms, 0760ms total)
T16D0 001:183 JLINK_WriteReg(R9, 0x1FFFF620)  returns 0x00 (0000ms, 0760ms total)
T16D0 001:183 JLINK_WriteReg(R10, 0x00000000)  returns 0x00 (0000ms, 0760ms total)
T16D0 001:183 JLINK_WriteReg(R11, 0x00000000)  returns 0x00 (0000ms, 0760ms total)
T16D0 001:183 JLINK_WriteReg(R12, 0x00000000)  returns 0x00 (0000ms, 0760ms total)
T16D0 001:183 JLINK_WriteReg(R13, 0x1FFFF800)  returns 0x00 (0000ms, 0760ms total)
T16D0 001:183 JLINK_WriteReg(R14, 0x1FFFF001)  returns 0x00 (0000ms, 0760ms total)
T16D0 001:183 JLINK_WriteReg(R15, 0x1FFFF068)  returns 0x00 (0000ms, 0760ms total)
T16D0 001:183 JLINK_WriteReg(XPSR, 0x01000000)  returns 0x00 (0000ms, 0760ms total)
T16D0 001:183 JLINK_WriteReg(MSP, 0x1FFFF800)  returns 0x00 (0000ms, 0760ms total)
T16D0 001:183 JLINK_WriteReg(PSP, 0x1FFFF800)  returns 0x00 (0000ms, 0760ms total)
T16D0 001:183 JLINK_WriteReg(CFBP, 0x00000000)  returns 0x00 (0000ms, 0760ms total)
T16D0 001:183 JLINK_SetBPEx(Addr = 0x1FFFF000, Type = 0xFFFFFFF2)  returns 0x0000000B (0000ms, 0760ms total)
T16D0 001:183 JLINK_Go() (0002ms, 0762ms total)
T16D0 001:185 JLINK_IsHalted()  returns TRUE (0003ms, 0765ms total)
T16D0 001:188 JLINK_ReadReg(R15)  returns 0x1FFFF000 (0000ms, 0762ms total)
T16D0 001:188 JLINK_ClrBPEx(BPHandle = 0x0000000B)  returns 0x00 (0000ms, 0762ms total)
T16D0 001:188 JLINK_ReadReg(R0)  returns 0x00000000 (0000ms, 0762ms total)
T16D0 001:189 JLINK_WriteReg(R0, 0x00002400)  returns 0x00 (0000ms, 0762ms total)
T16D0 001:189 JLINK_WriteReg(R1, 0x00000400)  returns 0x00 (0000ms, 0762ms total)
T16D0 001:189 JLINK_WriteReg(R2, 0x000000FF)  returns 0x00 (0000ms, 0762ms total)
T16D0 001:189 JLINK_WriteReg(R3, 0x00000000)  returns 0x00 (0000ms, 0762ms total)
T16D0 001:189 JLINK_WriteReg(R4, 0x00000000)  returns 0x00 (0000ms, 0762ms total)
T16D0 001:189 JLINK_WriteReg(R5, 0x00000000)  returns 0x00 (0000ms, 0762ms total)
T16D0 001:189 JLINK_WriteReg(R6, 0x00000000)  returns 0x00 (0000ms, 0762ms total)
T16D0 001:189 JLINK_WriteReg(R7, 0x00000000)  returns 0x00 (0000ms, 0762ms total)
T16D0 001:189 JLINK_WriteReg(R8, 0x00000000)  returns 0x00 (0000ms, 0762ms total)
T16D0 001:189 JLINK_WriteReg(R9, 0x1FFFF620)  returns 0x00 (0000ms, 0762ms total)
T16D0 001:189 JLINK_WriteReg(R10, 0x00000000)  returns 0x00 (0000ms, 0762ms total)
T16D0 001:189 JLINK_WriteReg(R11, 0x00000000)  returns 0x00 (0000ms, 0762ms total)
T16D0 001:189 JLINK_WriteReg(R12, 0x00000000)  returns 0x00 (0000ms, 0762ms total)
T16D0 001:189 JLINK_WriteReg(R13, 0x1FFFF800)  returns 0x00 (0000ms, 0762ms total)
T16D0 001:189 JLINK_WriteReg(R14, 0x1FFFF001)  returns 0x00 (0000ms, 0762ms total)
T16D0 001:189 JLINK_WriteReg(R15, 0x1FFFF068)  returns 0x00 (0000ms, 0762ms total)
T16D0 001:189 JLINK_WriteReg(XPSR, 0x01000000)  returns 0x00 (0000ms, 0762ms total)
T16D0 001:189 JLINK_WriteReg(MSP, 0x1FFFF800)  returns 0x00 (0000ms, 0762ms total)
T16D0 001:189 JLINK_WriteReg(PSP, 0x1FFFF800)  returns 0x00 (0000ms, 0762ms total)
T16D0 001:189 JLINK_WriteReg(CFBP, 0x00000000)  returns 0x00 (0000ms, 0762ms total)
T16D0 001:189 JLINK_SetBPEx(Addr = 0x1FFFF000, Type = 0xFFFFFFF2)  returns 0x0000000C (0000ms, 0762ms total)
T16D0 001:189 JLINK_Go() (0002ms, 0764ms total)
T16D0 001:191 JLINK_IsHalted()  returns TRUE (0003ms, 0767ms total)
T16D0 001:194 JLINK_ReadReg(R15)  returns 0x1FFFF000 (0000ms, 0764ms total)
T16D0 001:194 JLINK_ClrBPEx(BPHandle = 0x0000000C)  returns 0x00 (0000ms, 0764ms total)
T16D0 001:194 JLINK_ReadReg(R0)  returns 0x00000000 (0000ms, 0764ms total)
T16D0 001:195 JLINK_WriteReg(R0, 0x00002800)  returns 0x00 (0000ms, 0764ms total)
T16D0 001:195 JLINK_WriteReg(R1, 0x00000400)  returns 0x00 (0000ms, 0764ms total)
T16D0 001:195 JLINK_WriteReg(R2, 0x000000FF)  returns 0x00 (0000ms, 0764ms total)
T16D0 001:195 JLINK_WriteReg(R3, 0x00000000)  returns 0x00 (0000ms, 0764ms total)
T16D0 001:195 JLINK_WriteReg(R4, 0x00000000)  returns 0x00 (0000ms, 0764ms total)
T16D0 001:195 JLINK_WriteReg(R5, 0x00000000)  returns 0x00 (0000ms, 0764ms total)
T16D0 001:195 JLINK_WriteReg(R6, 0x00000000)  returns 0x00 (0000ms, 0764ms total)
T16D0 001:195 JLINK_WriteReg(R7, 0x00000000)  returns 0x00 (0000ms, 0764ms total)
T16D0 001:195 JLINK_WriteReg(R8, 0x00000000)  returns 0x00 (0000ms, 0764ms total)
T16D0 001:195 JLINK_WriteReg(R9, 0x1FFFF620)  returns 0x00 (0000ms, 0764ms total)
T16D0 001:195 JLINK_WriteReg(R10, 0x00000000)  returns 0x00 (0000ms, 0764ms total)
T16D0 001:195 JLINK_WriteReg(R11, 0x00000000)  returns 0x00 (0000ms, 0764ms total)
T16D0 001:195 JLINK_WriteReg(R12, 0x00000000)  returns 0x00 (0000ms, 0764ms total)
T16D0 001:195 JLINK_WriteReg(R13, 0x1FFFF800)  returns 0x00 (0000ms, 0764ms total)
T16D0 001:195 JLINK_WriteReg(R14, 0x1FFFF001)  returns 0x00 (0000ms, 0764ms total)
T16D0 001:195 JLINK_WriteReg(R15, 0x1FFFF068)  returns 0x00 (0000ms, 0764ms total)
T16D0 001:195 JLINK_WriteReg(XPSR, 0x01000000)  returns 0x00 (0000ms, 0764ms total)
T16D0 001:195 JLINK_WriteReg(MSP, 0x1FFFF800)  returns 0x00 (0000ms, 0764ms total)
T16D0 001:195 JLINK_WriteReg(PSP, 0x1FFFF800)  returns 0x00 (0000ms, 0764ms total)
T16D0 001:195 JLINK_WriteReg(CFBP, 0x00000000)  returns 0x00 (0000ms, 0764ms total)
T16D0 001:195 JLINK_SetBPEx(Addr = 0x1FFFF000, Type = 0xFFFFFFF2)  returns 0x0000000D (0000ms, 0764ms total)
T16D0 001:195 JLINK_Go() (0002ms, 0766ms total)
T16D0 001:197 JLINK_IsHalted()  returns TRUE (0004ms, 0770ms total)
T16D0 001:201 JLINK_ReadReg(R15)  returns 0x1FFFF000 (0000ms, 0766ms total)
T16D0 001:201 JLINK_ClrBPEx(BPHandle = 0x0000000D)  returns 0x00 (0000ms, 0766ms total)
T16D0 001:201 JLINK_ReadReg(R0)  returns 0x00000000 (0000ms, 0766ms total)
T16D0 001:201 JLINK_WriteReg(R0, 0x00002C00)  returns 0x00 (0000ms, 0766ms total)
T16D0 001:201 JLINK_WriteReg(R1, 0x00000400)  returns 0x00 (0000ms, 0766ms total)
T16D0 001:201 JLINK_WriteReg(R2, 0x000000FF)  returns 0x00 (0000ms, 0766ms total)
T16D0 001:201 JLINK_WriteReg(R3, 0x00000000)  returns 0x00 (0000ms, 0766ms total)
T16D0 001:201 JLINK_WriteReg(R4, 0x00000000)  returns 0x00 (0000ms, 0766ms total)
T16D0 001:201 JLINK_WriteReg(R5, 0x00000000)  returns 0x00 (0000ms, 0766ms total)
T16D0 001:201 JLINK_WriteReg(R6, 0x00000000)  returns 0x00 (0000ms, 0766ms total)
T16D0 001:201 JLINK_WriteReg(R7, 0x00000000)  returns 0x00 (0000ms, 0766ms total)
T16D0 001:201 JLINK_WriteReg(R8, 0x00000000)  returns 0x00 (0000ms, 0766ms total)
T16D0 001:201 JLINK_WriteReg(R9, 0x1FFFF620)  returns 0x00 (0000ms, 0766ms total)
T16D0 001:201 JLINK_WriteReg(R10, 0x00000000)  returns 0x00 (0000ms, 0766ms total)
T16D0 001:201 JLINK_WriteReg(R11, 0x00000000)  returns 0x00 (0000ms, 0766ms total)
T16D0 001:201 JLINK_WriteReg(R12, 0x00000000)  returns 0x00 (0000ms, 0766ms total)
T16D0 001:201 JLINK_WriteReg(R13, 0x1FFFF800)  returns 0x00 (0000ms, 0766ms total)
T16D0 001:201 JLINK_WriteReg(R14, 0x1FFFF001)  returns 0x00 (0000ms, 0766ms total)
T16D0 001:201 JLINK_WriteReg(R15, 0x1FFFF068)  returns 0x00 (0000ms, 0766ms total)
T16D0 001:201 JLINK_WriteReg(XPSR, 0x01000000)  returns 0x00 (0000ms, 0766ms total)
T16D0 001:201 JLINK_WriteReg(MSP, 0x1FFFF800)  returns 0x00 (0000ms, 0766ms total)
T16D0 001:201 JLINK_WriteReg(PSP, 0x1FFFF800)  returns 0x00 (0000ms, 0766ms total)
T16D0 001:201 JLINK_WriteReg(CFBP, 0x00000000)  returns 0x00 (0001ms, 0767ms total)
T16D0 001:202 JLINK_SetBPEx(Addr = 0x1FFFF000, Type = 0xFFFFFFF2)  returns 0x0000000E (0000ms, 0767ms total)
T16D0 001:202 JLINK_Go() (0002ms, 0769ms total)
T16D0 001:204 JLINK_IsHalted()  returns TRUE (0003ms, 0772ms total)
T16D0 001:207 JLINK_ReadReg(R15)  returns 0x1FFFF000 (0000ms, 0769ms total)
T16D0 001:207 JLINK_ClrBPEx(BPHandle = 0x0000000E)  returns 0x00 (0000ms, 0769ms total)
T16D0 001:207 JLINK_ReadReg(R0)  returns 0x00000000 (0000ms, 0769ms total)
T16D0 001:207 JLINK_WriteReg(R0, 0x00003000)  returns 0x00 (0000ms, 0769ms total)
T16D0 001:207 JLINK_WriteReg(R1, 0x00000400)  returns 0x00 (0000ms, 0769ms total)
T16D0 001:207 JLINK_WriteReg(R2, 0x000000FF)  returns 0x00 (0000ms, 0769ms total)
T16D0 001:207 JLINK_WriteReg(R3, 0x00000000)  returns 0x00 (0000ms, 0769ms total)
T16D0 001:207 JLINK_WriteReg(R4, 0x00000000)  returns 0x00 (0000ms, 0769ms total)
T16D0 001:207 JLINK_WriteReg(R5, 0x00000000)  returns 0x00 (0000ms, 0769ms total)
T16D0 001:207 JLINK_WriteReg(R6, 0x00000000)  returns 0x00 (0000ms, 0769ms total)
T16D0 001:207 JLINK_WriteReg(R7, 0x00000000)  returns 0x00 (0000ms, 0769ms total)
T16D0 001:207 JLINK_WriteReg(R8, 0x00000000)  returns 0x00 (0000ms, 0769ms total)
T16D0 001:207 JLINK_WriteReg(R9, 0x1FFFF620)  returns 0x00 (0000ms, 0769ms total)
T16D0 001:207 JLINK_WriteReg(R10, 0x00000000)  returns 0x00 (0000ms, 0769ms total)
T16D0 001:207 JLINK_WriteReg(R11, 0x00000000)  returns 0x00 (0000ms, 0769ms total)
T16D0 001:207 JLINK_WriteReg(R12, 0x00000000)  returns 0x00 (0000ms, 0769ms total)
T16D0 001:207 JLINK_WriteReg(R13, 0x1FFFF800)  returns 0x00 (0000ms, 0769ms total)
T16D0 001:207 JLINK_WriteReg(R14, 0x1FFFF001)  returns 0x00 (0000ms, 0769ms total)
T16D0 001:207 JLINK_WriteReg(R15, 0x1FFFF068)  returns 0x00 (0000ms, 0769ms total)
T16D0 001:207 JLINK_WriteReg(XPSR, 0x01000000)  returns 0x00 (0000ms, 0769ms total)
T16D0 001:207 JLINK_WriteReg(MSP, 0x1FFFF800)  returns 0x00 (0000ms, 0769ms total)
T16D0 001:207 JLINK_WriteReg(PSP, 0x1FFFF800)  returns 0x00 (0000ms, 0769ms total)
T16D0 001:208 JLINK_WriteReg(CFBP, 0x00000000)  returns 0x00 (0000ms, 0770ms total)
T16D0 001:208 JLINK_SetBPEx(Addr = 0x1FFFF000, Type = 0xFFFFFFF2)  returns 0x0000000F (0000ms, 0770ms total)
T16D0 001:208 JLINK_Go() (0001ms, 0771ms total)
T16D0 001:209 JLINK_IsHalted()  returns TRUE (0003ms, 0774ms total)
T16D0 001:212 JLINK_ReadReg(R15)  returns 0x1FFFF000 (0000ms, 0771ms total)
T16D0 001:212 JLINK_ClrBPEx(BPHandle = 0x0000000F)  returns 0x00 (0000ms, 0771ms total)
T16D0 001:212 JLINK_ReadReg(R0)  returns 0x00000000 (0001ms, 0772ms total)
T16D0 001:213 JLINK_WriteReg(R0, 0x00003400)  returns 0x00 (0000ms, 0772ms total)
T16D0 001:213 JLINK_WriteReg(R1, 0x00000400)  returns 0x00 (0000ms, 0772ms total)
T16D0 001:213 JLINK_WriteReg(R2, 0x000000FF)  returns 0x00 (0000ms, 0772ms total)
T16D0 001:213 JLINK_WriteReg(R3, 0x00000000)  returns 0x00 (0000ms, 0772ms total)
T16D0 001:213 JLINK_WriteReg(R4, 0x00000000)  returns 0x00 (0000ms, 0772ms total)
T16D0 001:213 JLINK_WriteReg(R5, 0x00000000)  returns 0x00 (0000ms, 0772ms total)
T16D0 001:213 JLINK_WriteReg(R6, 0x00000000)  returns 0x00 (0000ms, 0772ms total)
T16D0 001:213 JLINK_WriteReg(R7, 0x00000000)  returns 0x00 (0000ms, 0772ms total)
T16D0 001:213 JLINK_WriteReg(R8, 0x00000000)  returns 0x00 (0000ms, 0772ms total)
T16D0 001:213 JLINK_WriteReg(R9, 0x1FFFF620)  returns 0x00 (0000ms, 0772ms total)
T16D0 001:213 JLINK_WriteReg(R10, 0x00000000)  returns 0x00 (0000ms, 0772ms total)
T16D0 001:213 JLINK_WriteReg(R11, 0x00000000)  returns 0x00 (0000ms, 0772ms total)
T16D0 001:213 JLINK_WriteReg(R12, 0x00000000)  returns 0x00 (0000ms, 0772ms total)
T16D0 001:213 JLINK_WriteReg(R13, 0x1FFFF800)  returns 0x00 (0000ms, 0772ms total)
T16D0 001:213 JLINK_WriteReg(R14, 0x1FFFF001)  returns 0x00 (0000ms, 0772ms total)
T16D0 001:213 JLINK_WriteReg(R15, 0x1FFFF068)  returns 0x00 (0000ms, 0772ms total)
T16D0 001:213 JLINK_WriteReg(XPSR, 0x01000000)  returns 0x00 (0000ms, 0772ms total)
T16D0 001:213 JLINK_WriteReg(MSP, 0x1FFFF800)  returns 0x00 (0000ms, 0772ms total)
T16D0 001:213 JLINK_WriteReg(PSP, 0x1FFFF800)  returns 0x00 (0000ms, 0772ms total)
T16D0 001:213 JLINK_WriteReg(CFBP, 0x00000000)  returns 0x00 (0000ms, 0772ms total)
T16D0 001:213 JLINK_SetBPEx(Addr = 0x1FFFF000, Type = 0xFFFFFFF2)  returns 0x00000010 (0000ms, 0772ms total)
T16D0 001:213 JLINK_Go() (0002ms, 0774ms total)
T16D0 001:215 JLINK_IsHalted()  returns TRUE (0003ms, 0777ms total)
T16D0 001:218 JLINK_ReadReg(R15)  returns 0x1FFFF000 (0000ms, 0774ms total)
T16D0 001:218 JLINK_ClrBPEx(BPHandle = 0x00000010)  returns 0x00 (0000ms, 0774ms total)
T16D0 001:218 JLINK_ReadReg(R0)  returns 0x00000000 (0000ms, 0774ms total)
T16D0 001:219 JLINK_WriteReg(R0, 0x00003800)  returns 0x00 (0000ms, 0774ms total)
T16D0 001:219 JLINK_WriteReg(R1, 0x00000400)  returns 0x00 (0000ms, 0774ms total)
T16D0 001:219 JLINK_WriteReg(R2, 0x000000FF)  returns 0x00 (0000ms, 0774ms total)
T16D0 001:219 JLINK_WriteReg(R3, 0x00000000)  returns 0x00 (0000ms, 0774ms total)
T16D0 001:219 JLINK_WriteReg(R4, 0x00000000)  returns 0x00 (0000ms, 0774ms total)
T16D0 001:219 JLINK_WriteReg(R5, 0x00000000)  returns 0x00 (0000ms, 0774ms total)
T16D0 001:219 JLINK_WriteReg(R6, 0x00000000)  returns 0x00 (0000ms, 0774ms total)
T16D0 001:219 JLINK_WriteReg(R7, 0x00000000)  returns 0x00 (0000ms, 0774ms total)
T16D0 001:219 JLINK_WriteReg(R8, 0x00000000)  returns 0x00 (0000ms, 0774ms total)
T16D0 001:219 JLINK_WriteReg(R9, 0x1FFFF620)  returns 0x00 (0000ms, 0774ms total)
T16D0 001:219 JLINK_WriteReg(R10, 0x00000000)  returns 0x00 (0000ms, 0774ms total)
T16D0 001:219 JLINK_WriteReg(R11, 0x00000000)  returns 0x00 (0000ms, 0774ms total)
T16D0 001:219 JLINK_WriteReg(R12, 0x00000000)  returns 0x00 (0000ms, 0774ms total)
T16D0 001:219 JLINK_WriteReg(R13, 0x1FFFF800)  returns 0x00 (0000ms, 0774ms total)
T16D0 001:219 JLINK_WriteReg(R14, 0x1FFFF001)  returns 0x00 (0000ms, 0774ms total)
T16D0 001:219 JLINK_WriteReg(R15, 0x1FFFF068)  returns 0x00 (0000ms, 0774ms total)
T16D0 001:219 JLINK_WriteReg(XPSR, 0x01000000)  returns 0x00 (0000ms, 0774ms total)
T16D0 001:219 JLINK_WriteReg(MSP, 0x1FFFF800)  returns 0x00 (0000ms, 0774ms total)
T16D0 001:219 JLINK_WriteReg(PSP, 0x1FFFF800)  returns 0x00 (0000ms, 0774ms total)
T16D0 001:219 JLINK_WriteReg(CFBP, 0x00000000)  returns 0x00 (0000ms, 0774ms total)
T16D0 001:219 JLINK_SetBPEx(Addr = 0x1FFFF000, Type = 0xFFFFFFF2)  returns 0x00000011 (0000ms, 0774ms total)
T16D0 001:219 JLINK_Go() (0002ms, 0776ms total)
T16D0 001:221 JLINK_IsHalted()  returns TRUE (0003ms, 0779ms total)
T16D0 001:224 JLINK_ReadReg(R15)  returns 0x1FFFF000 (0000ms, 0776ms total)
T16D0 001:224 JLINK_ClrBPEx(BPHandle = 0x00000011)  returns 0x00 (0000ms, 0776ms total)
T16D0 001:224 JLINK_ReadReg(R0)  returns 0x00000000 (0000ms, 0776ms total)
T16D0 001:225 JLINK_WriteReg(R0, 0x00003C00)  returns 0x00 (0000ms, 0776ms total)
T16D0 001:225 JLINK_WriteReg(R1, 0x00000400)  returns 0x00 (0000ms, 0776ms total)
T16D0 001:225 JLINK_WriteReg(R2, 0x000000FF)  returns 0x00 (0000ms, 0776ms total)
T16D0 001:225 JLINK_WriteReg(R3, 0x00000000)  returns 0x00 (0000ms, 0776ms total)
T16D0 001:225 JLINK_WriteReg(R4, 0x00000000)  returns 0x00 (0000ms, 0776ms total)
T16D0 001:225 JLINK_WriteReg(R5, 0x00000000)  returns 0x00 (0000ms, 0776ms total)
T16D0 001:225 JLINK_WriteReg(R6, 0x00000000)  returns 0x00 (0000ms, 0776ms total)
T16D0 001:225 JLINK_WriteReg(R7, 0x00000000)  returns 0x00 (0000ms, 0776ms total)
T16D0 001:225 JLINK_WriteReg(R8, 0x00000000)  returns 0x00 (0000ms, 0776ms total)
T16D0 001:225 JLINK_WriteReg(R9, 0x1FFFF620)  returns 0x00 (0000ms, 0776ms total)
T16D0 001:225 JLINK_WriteReg(R10, 0x00000000)  returns 0x00 (0000ms, 0776ms total)
T16D0 001:225 JLINK_WriteReg(R11, 0x00000000)  returns 0x00 (0000ms, 0776ms total)
T16D0 001:225 JLINK_WriteReg(R12, 0x00000000)  returns 0x00 (0000ms, 0776ms total)
T16D0 001:225 JLINK_WriteReg(R13, 0x1FFFF800)  returns 0x00 (0000ms, 0776ms total)
T16D0 001:225 JLINK_WriteReg(R14, 0x1FFFF001)  returns 0x00 (0000ms, 0776ms total)
T16D0 001:225 JLINK_WriteReg(R15, 0x1FFFF068)  returns 0x00 (0000ms, 0776ms total)
T16D0 001:225 JLINK_WriteReg(XPSR, 0x01000000)  returns 0x00 (0000ms, 0776ms total)
T16D0 001:225 JLINK_WriteReg(MSP, 0x1FFFF800)  returns 0x00 (0000ms, 0776ms total)
T16D0 001:225 JLINK_WriteReg(PSP, 0x1FFFF800)  returns 0x00 (0000ms, 0776ms total)
T16D0 001:225 JLINK_WriteReg(CFBP, 0x00000000)  returns 0x00 (0000ms, 0776ms total)
T16D0 001:225 JLINK_SetBPEx(Addr = 0x1FFFF000, Type = 0xFFFFFFF2)  returns 0x00000012 (0000ms, 0776ms total)
T16D0 001:225 JLINK_Go() (0002ms, 0778ms total)
T16D0 001:227 JLINK_IsHalted()  returns TRUE (0004ms, 0782ms total)
T16D0 001:231 JLINK_ReadReg(R15)  returns 0x1FFFF000 (0000ms, 0778ms total)
T16D0 001:231 JLINK_ClrBPEx(BPHandle = 0x00000012)  returns 0x00 (0000ms, 0778ms total)
T16D0 001:231 JLINK_ReadReg(R0)  returns 0x00000000 (0000ms, 0778ms total)
T16D0 001:231 JLINK_WriteReg(R0, 0x00004000)  returns 0x00 (0000ms, 0778ms total)
T16D0 001:231 JLINK_WriteReg(R1, 0x00000400)  returns 0x00 (0000ms, 0778ms total)
T16D0 001:231 JLINK_WriteReg(R2, 0x000000FF)  returns 0x00 (0000ms, 0778ms total)
